
T2110 004:487 SEGGER J-Link V4.20c Log File (0001ms, 4467ms total)
T2110 004:487 DLL Compiled: Sep 24 2010 19:46:42 (0001ms, 4467ms total)
T2110 004:487 Logging started @ 2012-10-08 15:02 (0001ms, 4467ms total)
T2110 004:488 JLINK_SetWarnOutHandler(...) (0000ms, 4468ms total)
T2110 004:488 JLINK_OpenEx(...)
Firmware: J-Link ARM V8 compiled Jun 16 2011 14:52:53
Hardware: V8.00
S/N: 20090626
Feature(s): RDI,FlashDL,FlashBP,JFlash,GDBFull  returns O.K. (0317ms, 4468ms total)
T2110 004:806 JLINK_SetErrorOutHandler(...) (0001ms, 4785ms total)
T2110 004:808 JLINK_ExecCommand("ProjectFile = "D:\IAR\test\CortexM3\Fujitsu\lcd_ad_key\lcd_ad_key\example\ARM\JLinkSettings.ini"", ...)  returns 0x00 (0000ms, 4786ms total)
T2110 004:818 JLINK_ExecCommand("DisableConnectionTimeout", ...)  returns 0x00 (0000ms, 4786ms total)
T2110 004:818 JLINK_TIF_Select(JLINKARM_TIF_JTAG)  returns 0x00 (0000ms, 4786ms total)
T2110 004:818 JLINK_SetSpeed(20) (0000ms, 4786ms total)
T2110 004:818 JLINK_GetHardwareVersion()  returns 0x13880 (0002ms, 4786ms total)
T2110 004:820 JLINK_GetDLLVersion()  returns 42003 (0000ms, 4788ms total)
T2110 004:820 JLINK_GetFirmwareString(...) (0000ms, 4788ms total)
T2110 004:831 JLINK_GetDLLVersion()  returns 42003 (0000ms, 4788ms total)
T2110 004:831 JLINK_GetCompileDateTime() (0000ms, 4788ms total)
T2110 004:834 JLINK_GetFirmwareString(...) (0000ms, 4788ms total)
T2110 004:837 JLINK_GetHardwareVersion()  returns 0x13880 (0000ms, 4788ms total)
T2110 004:847 JLINK_Reset() >0x2F8 JTAG>TotalIRLen = 4, IRPrint = 0x01 >0x30 JTAG> >0x210 JTAG> >0x100 JTAG> >0xC8 JTAG> >0x170 JTAG> >0x30 JTAG> >0x100 JTAG> >0xC8 JTAG> >0x2C8 JTAG> >0x2C8 JTAG> >0x170 JTAG> >0x170 JTAG>Found Cortex-M3 r2p0, Little endian. >0xC8 JTAG> >0x218 JTAG> >0x170 JTAG> >0x170 JTAG>TPIU fitted. >0x170 JTAG>ETM fitted. >0x170 JTAG> >0x170 JTAG>  FPUnit: 6 code (BP) slots and 2 literal slots >0x170 JTAG> >0x220 JTAG> >0x218 JTAG> >0x250 JTAG> >0x170 JTAG> >0x170 JTAG> >0x218 JTAG>
 >0x218 JTAG> >0x170 JTAG> >0x170 JTAG> >0x1598 JTAG> >0x218 JTAG> >0x170 JTAG> >0x1598 JTAG> >0x170 JTAG> -- CPU_WriteMem(4 bytes @ 0xE000EDFC) -- CPU_WriteMem(4 bytes @ 0xE0001028) -- CPU_WriteMem(4 bytes @ 0xE0001038) -- CPU_WriteMem(4 bytes @ 0xE0001048) -- CPU_WriteMem(4 bytes @ 0xE0001058) (1427ms, 4788ms total)
T2110 006:275 JLINK_GetIdData(...) ScanLen=4 NumDevices=1 aId[0]=0x4BA00477 aIrRead[0]=0 aScanLen[0]=0 aScanRead[0]=0 (0001ms, 6215ms total)
T2110 006:276 JLINK_JTAG_GetDeviceID(DeviceIndex = 0)  returns 0x4BA00477 (0000ms, 6216ms total)
T2110 006:276 JLINK_JTAG_GetDeviceInfo(DeviceIndex = 0)  returns 0x00 (0001ms, 6216ms total)
T2110 006:277 JLINK_GetDebugInfo(0x100) -- Value=0xE00FF003  returns 0x00 (0000ms, 6217ms total)
T2110 006:279 JLINK_ReadMem (0xE00FF000, 0x0018 Bytes, ...) -- CPU_ReadMem(24 bytes @ 0xE00FF000) -- Data:  03 F0 F0 FF 03 20 F0 FF 03 30 F0 FF 03 10 F0 FF ...  returns 0x00 (0037ms, 6217ms total)
T2110 006:316 JLINK_ReadMemU32(0xE000ED00, 0x0001 Items, ...) -- CPU_ReadMem(4 bytes @ 0xE000ED00) -- Data:  30 C2 2F 41  returns 0x01 (0025ms, 6254ms total)
T2110 006:343 JLINK_Halt()  returns 0x00 (0000ms, 6279ms total)
T2110 006:343 JLINK_IsHalted()  returns TRUE (0000ms, 6279ms total)
T2110 006:343 JLINK_ReadMemU32(0xE000EDF0, 0x0001 Items, ...) -- CPU_ReadMem(4 bytes @ 0xE000EDF0) -- Data:  03 00 03 00  returns 0x01 (0024ms, 6279ms total)
T2110 006:367 JLINK_WriteU32(0xE000EDF0, 0xA05F0003) -- CPU_WriteMem(4 bytes @ 0xE000EDF0)  returns 0x00 (0033ms, 6303ms total)
T2110 006:400 JLINK_WriteU32(0xE000EDFC, 0x01000000) -- CPU_WriteMem(4 bytes @ 0xE000EDFC)  returns 0x00 (0015ms, 6336ms total)
T2110 006:415 JLINK_ReadMemU32(0xE0002000, 0x0001 Items, ...) -- CPU_ReadMem(4 bytes @ 0xE0002000) -- Data:  60 02 00 00  returns 0x01 (0025ms, 6351ms total)
T2110 006:440 JLINK_ReadMemU32(0xE0001000, 0x0001 Items, ...) -- CPU_ReadMem(4 bytes @ 0xE0001000) -- Data:  01 00 00 40  returns 0x01 (0025ms, 6376ms total)
T2110 006:478 JLINK_ExecCommand("Device = MB9BF506R", ...)  returns 0x00 (0000ms, 6401ms total)
T2110 006:478 JLINK_GetHWStatus(...)  returns 0x00 (0001ms, 6401ms total)
T2110 006:487 JLINK_GetNumBPUnits(Type = 0xFFFFFF00)  returns 0x06 (0000ms, 6402ms total)
T2110 006:487 JLINK_GetNumBPUnits(Type = 0xF0)  returns 0x800 (0000ms, 6402ms total)
T2110 006:487 JLINK_GetNumWPUnits()  returns 0x04 (0000ms, 6402ms total)
T2110 006:496 JLINK_GetSpeed()  returns 0x14 (0000ms, 6402ms total)
T2110 006:501 JLINK_ReadMemU32(0xE000E004, 0x0001 Items, ...) -- CPU_ReadMem(4 bytes @ 0xE000E004) -- Data:  01 00 00 00  returns 0x01 (0024ms, 6402ms total)
T2110 006:525 JLINK_WriteMem(0xE0001000, 0x001C Bytes, ...) -- Data:  01 00 00 00 00 00 00 00 00 00 00 00 00 00 00 00 ... -- CPU_WriteMem(28 bytes @ 0xE0001000)  returns 0x1C (0031ms, 6426ms total)
T2110 006:556 JLINK_ReadMem (0xE0001000, 0x001C Bytes, ...) -- CPU_ReadMem(28 bytes @ 0xE0001000) -- Data:  01 00 00 40 00 00 00 00 00 00 00 00 00 00 00 00 ...  returns 0x00 (0039ms, 6457ms total)
T2110 006:595 JLINK_Halt()  returns 0x00 (0018ms, 6496ms total)
T2110 006:613 JLINK_IsHalted()  returns TRUE (0001ms, 6514ms total)
T2110 006:643 JLINK_WriteMem(0x20000000, 0x0254 Bytes, ...) -- Data:  00 BE 0A E0 0D 78 2D 06 68 40 08 24 40 00 00 D3 ... -- CPU_WriteMem(596 bytes @ 0x20000000)  returns 0x254 (0361ms, 6514ms total)
T2110 007:005 JLINK_WriteReg(R0, 0x00000000)  returns 0x00 (0000ms, 6875ms total)
T2110 007:005 JLINK_WriteReg(R1, 0x003D0900)  returns 0x00 (0001ms, 6875ms total)
T2110 007:006 JLINK_WriteReg(R2, 0x00000001)  returns 0x00 (0000ms, 6876ms total)
T2110 007:006 JLINK_WriteReg(R3, 0x00000000)  returns 0x00 (0000ms, 6876ms total)
T2110 007:006 JLINK_WriteReg(R4, 0x00000000)  returns 0x00 (0000ms, 6876ms total)
T2110 007:006 JLINK_WriteReg(R5, 0x00000000)  returns 0x00 (0000ms, 6876ms total)
T2110 007:006 JLINK_WriteReg(R6, 0x00000000)  returns 0x00 (0000ms, 6876ms total)
T2110 007:006 JLINK_WriteReg(R7, 0x00000000)  returns 0x00 (0000ms, 6876ms total)
T2110 007:006 JLINK_WriteReg(R8, 0x00000000)  returns 0x00 (0000ms, 6876ms total)
T2110 007:006 JLINK_WriteReg(R9, 0x20000248)  returns 0x00 (0000ms, 6876ms total)
T2110 007:006 JLINK_WriteReg(R10, 0x00000000)  returns 0x00 (0000ms, 6876ms total)
T2110 007:006 JLINK_WriteReg(R11, 0x00000000)  returns 0x00 (0000ms, 6876ms total)
T2110 007:006 JLINK_WriteReg(R12, 0x00000000)  returns 0x00 (0000ms, 6876ms total)
T2110 007:006 JLINK_WriteReg(R13, 0x20000800)  returns 0x00 (0000ms, 6876ms total)
T2110 007:006 JLINK_WriteReg(R14, 0x20000001)  returns 0x00 (0000ms, 6876ms total)
T2110 007:006 JLINK_WriteReg(R15, 0x200000A8)  returns 0x00 (0000ms, 6876ms total)
T2110 007:006 JLINK_WriteReg(XPSR, 0x01000000)  returns 0x00 (0001ms, 6876ms total)
T2110 007:007 JLINK_WriteReg(MSP, 0x20000800)  returns 0x00 (0000ms, 6877ms total)
T2110 007:007 JLINK_WriteReg(PSP, 0x20000800)  returns 0x00 (0000ms, 6877ms total)
T2110 007:007 JLINK_WriteReg(CFBP, 0x00000000)  returns 0x00 (0000ms, 6877ms total)
T2110 007:007 JLINK_SetBPEx(Addr = 0x20000000, Type = 0xFFFFFFF2) -- CPU_ReadMem(4 bytes @ 0x20000000) -- CPU_WriteMem(4 bytes @ 0x20000000) -- CPU_ReadMem(4 bytes @ 0x20000000) -- CPU_WriteMem(4 bytes @ 0x20000000) -- CPU_ReadMem(2 bytes @ 0x20000000)  returns 0x00000001 (0105ms, 6877ms total)
T2110 007:112 JLINK_Go() -- CPU_WriteMem(2 bytes @ 0x20000000) -- CPU_WriteMem(4 bytes @ 0xE0002008) -- CPU_WriteMem(4 bytes @ 0xE000200C) -- CPU_WriteMem(4 bytes @ 0xE0002010) -- CPU_WriteMem(4 bytes @ 0xE0002014) -- CPU_WriteMem(4 bytes @ 0xE0002018) -- CPU_WriteMem(4 bytes @ 0xE000201C) (0206ms, 6982ms total)
T2110 007:318 JLINK_IsHalted() -- CPU_ReadMem(2 bytes @ 0x20000000)  returns TRUE (0478ms, 7188ms total)
T2110 007:796 JLINK_ReadReg(R15)  returns 0x20000000 (0000ms, 7188ms total)
T2110 007:796 JLINK_ClrBPEx(BPHandle = 0x00000001)  returns 0x00 (0000ms, 7188ms total)
T2110 007:796 JLINK_ReadReg(R0)  returns 0x00000000 (0000ms, 7188ms total)
T2110 007:796 JLINK_WriteReg(R0, 0x00000000)  returns 0x00 (0001ms, 7188ms total)
T2110 007:797 JLINK_WriteReg(R1, 0x00002000)  returns 0x00 (0000ms, 7189ms total)
T2110 007:797 JLINK_WriteReg(R2, 0x000000FF)  returns 0x00 (0000ms, 7189ms total)
T2110 007:797 JLINK_WriteReg(R3, 0x00000000)  returns 0x00 (0000ms, 7189ms total)
T2110 007:797 JLINK_WriteReg(R4, 0x00000000)  returns 0x00 (0000ms, 7189ms total)
T2110 007:797 JLINK_WriteReg(R5, 0x00000000)  returns 0x00 (0000ms, 7189ms total)
T2110 007:797 JLINK_WriteReg(R6, 0x00000000)  returns 0x00 (0000ms, 7189ms total)
T2110 007:797 JLINK_WriteReg(R7, 0x00000000)  returns 0x00 (0000ms, 7189ms total)
T2110 007:797 JLINK_WriteReg(R8, 0x00000000)  returns 0x00 (0000ms, 7189ms total)
T2110 007:797 JLINK_WriteReg(R9, 0x20000248)  returns 0x00 (0000ms, 7189ms total)
T2110 007:797 JLINK_WriteReg(R10, 0x00000000)  returns 0x00 (0000ms, 7189ms total)
T2110 007:797 JLINK_WriteReg(R11, 0x00000000)  returns 0x00 (0000ms, 7189ms total)
T2110 007:797 JLINK_WriteReg(R12, 0x00000000)  returns 0x00 (0000ms, 7189ms total)
T2110 007:797 JLINK_WriteReg(R13, 0x20000800)  returns 0x00 (0000ms, 7189ms total)
T2110 007:797 JLINK_WriteReg(R14, 0x20000001)  returns 0x00 (0000ms, 7189ms total)
T2110 007:797 JLINK_WriteReg(R15, 0x20000020)  returns 0x00 (0000ms, 7189ms total)
T2110 007:797 JLINK_WriteReg(XPSR, 0x01000000)  returns 0x00 (0000ms, 7189ms total)
T2110 007:797 JLINK_WriteReg(MSP, 0x20000800)  returns 0x00 (0000ms, 7189ms total)
T2110 007:797 JLINK_WriteReg(PSP, 0x20000800)  returns 0x00 (0000ms, 7189ms total)
T2110 007:797 JLINK_WriteReg(CFBP, 0x00000000)  returns 0x00 (0000ms, 7189ms total)
T2110 007:797 JLINK_SetBPEx(Addr = 0x20000000, Type = 0xFFFFFFF2)  returns 0x00000002 (0000ms, 7189ms total)
T2110 007:797 JLINK_Go() -- CPU_WriteMem(4 bytes @ 0xE0002008) -- CPU_WriteMem(4 bytes @ 0xE000200C) -- CPU_WriteMem(4 bytes @ 0xE0002010) -- CPU_WriteMem(4 bytes @ 0xE0002014) -- CPU_WriteMem(4 bytes @ 0xE0002018) -- CPU_WriteMem(4 bytes @ 0xE000201C) (0148ms, 7189ms total)
T2110 007:946 JLINK_IsHalted() -- CPU_ReadMem(2 bytes @ 0x20000000)  returns TRUE (0477ms, 7337ms total)
T2110 008:423 JLINK_ReadReg(R15)  returns 0x20000000 (0001ms, 7337ms total)
T2110 008:424 JLINK_ClrBPEx(BPHandle = 0x00000002)  returns 0x00 (0000ms, 7338ms total)
T2110 008:424 JLINK_ReadReg(R0)  returns 0x00000001 (0000ms, 7338ms total)
T2110 008:424 JLINK_WriteReg(R0, 0x00000000)  returns 0x00 (0000ms, 7338ms total)
T2110 008:424 JLINK_WriteReg(R1, 0x00002000)  returns 0x00 (0000ms, 7338ms total)
T2110 008:424 JLINK_WriteReg(R2, 0x000000FF)  returns 0x00 (0000ms, 7338ms total)
T2110 008:424 JLINK_WriteReg(R3, 0x00000000)  returns 0x00 (0001ms, 7338ms total)
T2110 008:425 JLINK_WriteReg(R4, 0x00000000)  returns 0x00 (0000ms, 7339ms total)
T2110 008:425 JLINK_WriteReg(R5, 0x00000000)  returns 0x00 (0000ms, 7339ms total)
T2110 008:425 JLINK_WriteReg(R6, 0x00000000)  returns 0x00 (0000ms, 7339ms total)
T2110 008:425 JLINK_WriteReg(R7, 0x00000000)  returns 0x00 (0000ms, 7339ms total)
T2110 008:425 JLINK_WriteReg(R8, 0x00000000)  returns 0x00 (0000ms, 7339ms total)
T2110 008:425 JLINK_WriteReg(R9, 0x20000248)  returns 0x00 (0000ms, 7339ms total)
T2110 008:425 JLINK_WriteReg(R10, 0x00000000)  returns 0x00 (0000ms, 7339ms total)
T2110 008:425 JLINK_WriteReg(R11, 0x00000000)  returns 0x00 (0000ms, 7339ms total)
T2110 008:425 JLINK_WriteReg(R12, 0x00000000)  returns 0x00 (0000ms, 7339ms total)
T2110 008:425 JLINK_WriteReg(R13, 0x20000800)  returns 0x00 (0000ms, 7339ms total)
T2110 008:425 JLINK_WriteReg(R14, 0x20000001)  returns 0x00 (0000ms, 7339ms total)
T2110 008:425 JLINK_WriteReg(R15, 0x20000146)  returns 0x00 (0000ms, 7339ms total)
T2110 008:425 JLINK_WriteReg(XPSR, 0x01000000)  returns 0x00 (0000ms, 7339ms total)
T2110 008:425 JLINK_WriteReg(MSP, 0x20000800)  returns 0x00 (0000ms, 7339ms total)
T2110 008:425 JLINK_WriteReg(PSP, 0x20000800)  returns 0x00 (0000ms, 7339ms total)
T2110 008:425 JLINK_WriteReg(CFBP, 0x00000000)  returns 0x00 (0000ms, 7339ms total)
T2110 008:425 JLINK_SetBPEx(Addr = 0x20000000, Type = 0xFFFFFFF2)  returns 0x00000003 (0000ms, 7339ms total)
T2110 008:425 JLINK_Go() -- CPU_WriteMem(4 bytes @ 0xE0002008) -- CPU_WriteMem(4 bytes @ 0xE000200C) -- CPU_WriteMem(4 bytes @ 0xE0002010) -- CPU_WriteMem(4 bytes @ 0xE0002014) -- CPU_WriteMem(4 bytes @ 0xE0002018) -- CPU_WriteMem(4 bytes @ 0xE000201C) (0161ms, 7339ms total)
T2110 008:586 JLINK_IsHalted() -- CPU_ReadMem(2 bytes @ 0x20000000)  returns TRUE (0480ms, 7500ms total)
T2110 009:068 JLINK_ReadReg(R15)  returns 0x20000000 (0000ms, 7500ms total)
T2110 009:068 JLINK_ClrBPEx(BPHandle = 0x00000003)  returns 0x00 (0000ms, 7500ms total)
T2110 009:068 JLINK_ReadReg(R0)  returns 0x00000000 (0000ms, 7500ms total)
T2110 009:069 JLINK_WriteReg(R0, 0x00000001)  returns 0x00 (0000ms, 7500ms total)
T2110 009:069 JLINK_WriteReg(R1, 0x00002000)  returns 0x00 (0000ms, 7500ms total)
T2110 009:069 JLINK_WriteReg(R2, 0x000000FF)  returns 0x00 (0000ms, 7500ms total)
T2110 009:069 JLINK_WriteReg(R3, 0x00000000)  returns 0x00 (0000ms, 7500ms total)
T2110 009:069 JLINK_WriteReg(R4, 0x00000000)  returns 0x00 (0000ms, 7500ms total)
T2110 009:069 JLINK_WriteReg(R5, 0x00000000)  returns 0x00 (0000ms, 7500ms total)
T2110 009:069 JLINK_WriteReg(R6, 0x00000000)  returns 0x00 (0000ms, 7500ms total)
T2110 009:069 JLINK_WriteReg(R7, 0x00000000)  returns 0x00 (0000ms, 7500ms total)
T2110 009:069 JLINK_WriteReg(R8, 0x00000000)  returns 0x00 (0000ms, 7500ms total)
T2110 009:069 JLINK_WriteReg(R9, 0x20000248)  returns 0x00 (0000ms, 7500ms total)
T2110 009:069 JLINK_WriteReg(R10, 0x00000000)  returns 0x00 (0000ms, 7500ms total)
T2110 009:069 JLINK_WriteReg(R11, 0x00000000)  returns 0x00 (0000ms, 7500ms total)
T2110 009:069 JLINK_WriteReg(R12, 0x00000000)  returns 0x00 (0000ms, 7500ms total)
T2110 009:069 JLINK_WriteReg(R13, 0x20000800)  returns 0x00 (0001ms, 7500ms total)
T2110 009:070 JLINK_WriteReg(R14, 0x20000001)  returns 0x00 (0000ms, 7501ms total)
T2110 009:070 JLINK_WriteReg(R15, 0x200000CE)  returns 0x00 (0000ms, 7501ms total)
T2110 009:070 JLINK_WriteReg(XPSR, 0x01000000)  returns 0x00 (0000ms, 7501ms total)
T2110 009:070 JLINK_WriteReg(MSP, 0x20000800)  returns 0x00 (0000ms, 7501ms total)
T2110 009:070 JLINK_WriteReg(PSP, 0x20000800)  returns 0x00 (0000ms, 7501ms total)
T2110 009:070 JLINK_WriteReg(CFBP, 0x00000000)  returns 0x00 (0000ms, 7501ms total)
T2110 009:070 JLINK_SetBPEx(Addr = 0x20000000, Type = 0xFFFFFFF2)  returns 0x00000004 (0000ms, 7501ms total)
T2110 009:070 JLINK_Go() -- CPU_WriteMem(4 bytes @ 0xE0002008) -- CPU_WriteMem(4 bytes @ 0xE000200C) -- CPU_WriteMem(4 bytes @ 0xE0002010) -- CPU_WriteMem(4 bytes @ 0xE0002014) -- CPU_WriteMem(4 bytes @ 0xE0002018) -- CPU_WriteMem(4 bytes @ 0xE000201C) (0168ms, 7501ms total)
T2110 009:238 JLINK_IsHalted() -- CPU_ReadMem(2 bytes @ 0x20000000)  returns TRUE (0478ms, 7669ms total)
T2110 009:716 JLINK_ReadReg(R15)  returns 0x20000000 (0001ms, 7669ms total)
T2110 009:717 JLINK_ClrBPEx(BPHandle = 0x00000004)  returns 0x00 (0000ms, 7670ms total)
T2110 009:717 JLINK_ReadReg(R0)  returns 0x00000000 (0000ms, 7670ms total)
T2110 009:773 JLINK_WriteMem(0x20000000, 0x0254 Bytes, ...) -- Data:  00 BE 0A E0 0D 78 2D 06 68 40 08 24 40 00 00 D3 ... -- CPU_WriteMem(596 bytes @ 0x20000000)  returns 0x254 (0360ms, 7670ms total)
T2110 010:134 JLINK_WriteReg(R0, 0x00000000)  returns 0x00 (0000ms, 8030ms total)
T2110 010:134 JLINK_WriteReg(R1, 0x003D0900)  returns 0x00 (0000ms, 8030ms total)
T2110 010:134 JLINK_WriteReg(R2, 0x00000002)  returns 0x00 (0000ms, 8030ms total)
T2110 010:134 JLINK_WriteReg(R3, 0x00000000)  returns 0x00 (0000ms, 8030ms total)
T2110 010:134 JLINK_WriteReg(R4, 0x00000000)  returns 0x00 (0000ms, 8030ms total)
T2110 010:134 JLINK_WriteReg(R5, 0x00000000)  returns 0x00 (0000ms, 8030ms total)
T2110 010:134 JLINK_WriteReg(R6, 0x00000000)  returns 0x00 (0000ms, 8030ms total)
T2110 010:134 JLINK_WriteReg(R7, 0x00000000)  returns 0x00 (0000ms, 8030ms total)
T2110 010:134 JLINK_WriteReg(R8, 0x00000000)  returns 0x00 (0001ms, 8030ms total)
T2110 010:135 JLINK_WriteReg(R9, 0x20000248)  returns 0x00 (0000ms, 8031ms total)
T2110 010:135 JLINK_WriteReg(R10, 0x00000000)  returns 0x00 (0000ms, 8031ms total)
T2110 010:135 JLINK_WriteReg(R11, 0x00000000)  returns 0x00 (0000ms, 8031ms total)
T2110 010:135 JLINK_WriteReg(R12, 0x00000000)  returns 0x00 (0000ms, 8031ms total)
T2110 010:135 JLINK_WriteReg(R13, 0x20000800)  returns 0x00 (0000ms, 8031ms total)
T2110 010:135 JLINK_WriteReg(R14, 0x20000001)  returns 0x00 (0000ms, 8031ms total)
T2110 010:135 JLINK_WriteReg(R15, 0x200000A8)  returns 0x00 (0000ms, 8031ms total)
T2110 010:135 JLINK_WriteReg(XPSR, 0x01000000)  returns 0x00 (0000ms, 8031ms total)
T2110 010:135 JLINK_WriteReg(MSP, 0x20000800)  returns 0x00 (0000ms, 8031ms total)
T2110 010:135 JLINK_WriteReg(PSP, 0x20000800)  returns 0x00 (0000ms, 8031ms total)
T2110 010:135 JLINK_WriteReg(CFBP, 0x00000000)  returns 0x00 (0000ms, 8031ms total)
T2110 010:135 JLINK_SetBPEx(Addr = 0x20000000, Type = 0xFFFFFFF2) -- CPU_ReadMem(4 bytes @ 0x20000000) -- CPU_WriteMem(4 bytes @ 0x20000000) -- CPU_ReadMem(4 bytes @ 0x20000000) -- CPU_WriteMem(4 bytes @ 0x20000000) -- CPU_ReadMem(2 bytes @ 0x20000000)  returns 0x00000005 (0105ms, 8031ms total)
T2110 010:240 JLINK_Go() -- CPU_WriteMem(2 bytes @ 0x20000000) -- CPU_WriteMem(4 bytes @ 0xE0002008) -- CPU_WriteMem(4 bytes @ 0xE000200C) -- CPU_WriteMem(4 bytes @ 0xE0002010) -- CPU_WriteMem(4 bytes @ 0xE0002014) -- CPU_WriteMem(4 bytes @ 0xE0002018) -- CPU_WriteMem(4 bytes @ 0xE000201C) (0189ms, 8136ms total)
T2110 010:429 JLINK_IsHalted() -- CPU_ReadMem(2 bytes @ 0x20000000)  returns TRUE (0477ms, 8325ms total)
T2110 010:907 JLINK_ReadReg(R15)  returns 0x20000000 (0001ms, 8325ms total)
T2110 010:908 JLINK_ClrBPEx(BPHandle = 0x00000005)  returns 0x00 (0000ms, 8326ms total)
T2110 010:908 JLINK_ReadReg(R0)  returns 0x00000000 (0000ms, 8326ms total)
T2110 010:908 JLINK_WriteMem(0x20000254, 0x0400 Bytes, ...) -- Data:  90 0A 00 20 6D 0E 00 00 75 0E 00 00 77 0E 00 00 ... -- CPU_WriteMem(1024 bytes @ 0x20000254)  returns 0x400 (0578ms, 8326ms total)
T2110 011:486 JLINK_WriteReg(R0, 0x00000000)  returns 0x00 (0000ms, 8904ms total)
T2110 011:486 JLINK_WriteReg(R1, 0x00000400)  returns 0x00 (0000ms, 8904ms total)
T2110 011:486 JLINK_WriteReg(R2, 0x20000254)  returns 0x00 (0000ms, 8904ms total)
T2110 011:486 JLINK_WriteReg(R3, 0x00000000)  returns 0x00 (0000ms, 8904ms total)
T2110 011:486 JLINK_WriteReg(R4, 0x00000000)  returns 0x00 (0000ms, 8904ms total)
T2110 011:486 JLINK_WriteReg(R5, 0x00000000)  returns 0x00 (0000ms, 8904ms total)
T2110 011:486 JLINK_WriteReg(R6, 0x00000000)  returns 0x00 (0000ms, 8904ms total)
T2110 011:486 JLINK_WriteReg(R7, 0x00000000)  returns 0x00 (0000ms, 8904ms total)
T2110 011:486 JLINK_WriteReg(R8, 0x00000000)  returns 0x00 (0001ms, 8904ms total)
T2110 011:487 JLINK_WriteReg(R9, 0x20000248)  returns 0x00 (0000ms, 8905ms total)
T2110 011:487 JLINK_WriteReg(R10, 0x00000000)  returns 0x00 (0000ms, 8905ms total)
T2110 011:487 JLINK_WriteReg(R11, 0x00000000)  returns 0x00 (0000ms, 8905ms total)
T2110 011:487 JLINK_WriteReg(R12, 0x00000000)  returns 0x00 (0000ms, 8905ms total)
T2110 011:487 JLINK_WriteReg(R13, 0x20000800)  returns 0x00 (0000ms, 8905ms total)
T2110 011:487 JLINK_WriteReg(R14, 0x20000001)  returns 0x00 (0000ms, 8905ms total)
T2110 011:487 JLINK_WriteReg(R15, 0x200001C4)  returns 0x00 (0000ms, 8905ms total)
T2110 011:487 JLINK_WriteReg(XPSR, 0x01000000)  returns 0x00 (0000ms, 8905ms total)
T2110 011:487 JLINK_WriteReg(MSP, 0x20000800)  returns 0x00 (0000ms, 8905ms total)
T2110 011:487 JLINK_WriteReg(PSP, 0x20000800)  returns 0x00 (0000ms, 8905ms total)
T2110 011:487 JLINK_WriteReg(CFBP, 0x00000000)  returns 0x00 (0000ms, 8905ms total)
T2110 011:487 JLINK_SetBPEx(Addr = 0x20000000, Type = 0xFFFFFFF2)  returns 0x00000006 (0000ms, 8905ms total)
T2110 011:487 JLINK_Go() -- CPU_WriteMem(4 bytes @ 0xE0002008) -- CPU_WriteMem(4 bytes @ 0xE000200C) -- CPU_WriteMem(4 bytes @ 0xE0002010) -- CPU_WriteMem(4 bytes @ 0xE0002014) -- CPU_WriteMem(4 bytes @ 0xE0002018) -- CPU_WriteMem(4 bytes @ 0xE000201C) (0166ms, 8905ms total)
T2110 011:653 JLINK_IsHalted() -- CPU_ReadMem(2 bytes @ 0x20000000)  returns TRUE (0478ms, 9071ms total)
T2110 012:133 JLINK_ReadReg(R15)  returns 0x20000000 (0002ms, 9071ms total)
T2110 012:135 JLINK_ClrBPEx(BPHandle = 0x00000006)  returns 0x00 (0000ms, 9073ms total)
T2110 012:135 JLINK_ReadReg(R0)  returns 0x00000000 (0000ms, 9073ms total)
T2110 012:135 JLINK_WriteMem(0x20000254, 0x0400 Bytes, ...) -- Data:  00 30 03 40 00 70 02 40 3C 70 02 40 2D 70 02 40 ... -- CPU_WriteMem(1024 bytes @ 0x20000254)  returns 0x400 (0578ms, 9073ms total)
T2110 012:713 JLINK_WriteReg(R0, 0x00000400)  returns 0x00 (0000ms, 9651ms total)
T2110 012:713 JLINK_WriteReg(R1, 0x00000400)  returns 0x00 (0000ms, 9651ms total)
T2110 012:713 JLINK_WriteReg(R2, 0x20000254)  returns 0x00 (0001ms, 9651ms total)
T2110 012:714 JLINK_WriteReg(R3, 0x00000000)  returns 0x00 (0000ms, 9652ms total)
T2110 012:714 JLINK_WriteReg(R4, 0x00000000)  returns 0x00 (0000ms, 9652ms total)
T2110 012:714 JLINK_WriteReg(R5, 0x00000000)  returns 0x00 (0000ms, 9652ms total)
T2110 012:714 JLINK_WriteReg(R6, 0x00000000)  returns 0x00 (0000ms, 9652ms total)
T2110 012:714 JLINK_WriteReg(R7, 0x00000000)  returns 0x00 (0000ms, 9652ms total)
T2110 012:714 JLINK_WriteReg(R8, 0x00000000)  returns 0x00 (0000ms, 9652ms total)
T2110 012:714 JLINK_WriteReg(R9, 0x20000248)  returns 0x00 (0000ms, 9652ms total)
T2110 012:714 JLINK_WriteReg(R10, 0x00000000)  returns 0x00 (0000ms, 9652ms total)
T2110 012:714 JLINK_WriteReg(R11, 0x00000000)  returns 0x00 (0000ms, 9652ms total)
T2110 012:714 JLINK_WriteReg(R12, 0x00000000)  returns 0x00 (0000ms, 9652ms total)
T2110 012:714 JLINK_WriteReg(R13, 0x20000800)  returns 0x00 (0000ms, 9652ms total)
T2110 012:714 JLINK_WriteReg(R14, 0x20000001)  returns 0x00 (0000ms, 9652ms total)
T2110 012:714 JLINK_WriteReg(R15, 0x200001C4)  returns 0x00 (0000ms, 9652ms total)
T2110 012:715 JLINK_WriteReg(XPSR, 0x01000000)  returns 0x00 (0000ms, 9653ms total)
T2110 012:715 JLINK_WriteReg(MSP, 0x20000800)  returns 0x00 (0000ms, 9653ms total)
T2110 012:715 JLINK_WriteReg(PSP, 0x20000800)  returns 0x00 (0000ms, 9653ms total)
T2110 012:715 JLINK_WriteReg(CFBP, 0x00000000)  returns 0x00 (0000ms, 9653ms total)
T2110 012:715 JLINK_SetBPEx(Addr = 0x20000000, Type = 0xFFFFFFF2)  returns 0x00000007 (0001ms, 9653ms total)
T2110 012:716 JLINK_Go() -- CPU_WriteMem(4 bytes @ 0xE0002008) -- CPU_WriteMem(4 bytes @ 0xE000200C) -- CPU_WriteMem(4 bytes @ 0xE0002010) -- CPU_WriteMem(4 bytes @ 0xE0002014) -- CPU_WriteMem(4 bytes @ 0xE0002018) -- CPU_WriteMem(4 bytes @ 0xE000201C) (0190ms, 9654ms total)
T2110 012:906 JLINK_IsHalted() -- CPU_ReadMem(2 bytes @ 0x20000000)  returns TRUE (0487ms, 9844ms total)
T2110 013:414 JLINK_ReadReg(R15)  returns 0x20000000 (0017ms, 9844ms total)
T2110 013:431 JLINK_ClrBPEx(BPHandle = 0x00000007)  returns 0x00 (0000ms, 9861ms total)
T2110 013:431 JLINK_ReadReg(R0)  returns 0x00000000 (0000ms, 9861ms total)
T2110 013:432 JLINK_WriteMem(0x20000254, 0x0400 Bytes, ...) -- Data:  20 F0 20 00 D4 49 C1 F8 04 04 08 46 D0 F8 04 04 ... -- CPU_WriteMem(1024 bytes @ 0x20000254)  returns 0x400 (0578ms, 9861ms total)
T2110 014:011 JLINK_WriteReg(R0, 0x00000800)  returns 0x00 (0000ms, 10439ms total)
T2110 014:011 JLINK_WriteReg(R1, 0x00000400)  returns 0x00 (0000ms, 10439ms total)
T2110 014:011 JLINK_WriteReg(R2, 0x20000254)  returns 0x00 (0000ms, 10439ms total)
T2110 014:011 JLINK_WriteReg(R3, 0x00000000)  returns 0x00 (0000ms, 10439ms total)
T2110 014:011 JLINK_WriteReg(R4, 0x00000000)  returns 0x00 (0000ms, 10439ms total)
T2110 014:011 JLINK_WriteReg(R5, 0x00000000)  returns 0x00 (0000ms, 10439ms total)
T2110 014:011 JLINK_WriteReg(R6, 0x00000000)  returns 0x00 (0000ms, 10439ms total)
T2110 014:011 JLINK_WriteReg(R7, 0x00000000)  returns 0x00 (0000ms, 10439ms total)
T2110 014:011 JLINK_WriteReg(R8, 0x00000000)  returns 0x00 (0000ms, 10439ms total)
T2110 014:011 JLINK_WriteReg(R9, 0x20000248)  returns 0x00 (0000ms, 10439ms total)
T2110 014:011 JLINK_WriteReg(R10, 0x00000000)  returns 0x00 (0000ms, 10439ms total)
T2110 014:011 JLINK_WriteReg(R11, 0x00000000)  returns 0x00 (0000ms, 10439ms total)
T2110 014:011 JLINK_WriteReg(R12, 0x00000000)  returns 0x00 (0000ms, 10439ms total)
T2110 014:011 JLINK_WriteReg(R13, 0x20000800)  returns 0x00 (0000ms, 10439ms total)
T2110 014:011 JLINK_WriteReg(R14, 0x20000001)  returns 0x00 (0001ms, 10439ms total)
T2110 014:012 JLINK_WriteReg(R15, 0x200001C4)  returns 0x00 (0000ms, 10440ms total)
T2110 014:012 JLINK_WriteReg(XPSR, 0x01000000)  returns 0x00 (0000ms, 10440ms total)
T2110 014:012 JLINK_WriteReg(MSP, 0x20000800)  returns 0x00 (0000ms, 10440ms total)
T2110 014:012 JLINK_WriteReg(PSP, 0x20000800)  returns 0x00 (0000ms, 10440ms total)
T2110 014:012 JLINK_WriteReg(CFBP, 0x00000000)  returns 0x00 (0000ms, 10440ms total)
T2110 014:012 JLINK_SetBPEx(Addr = 0x20000000, Type = 0xFFFFFFF2)  returns 0x00000008 (0000ms, 10440ms total)
T2110 014:012 JLINK_Go() -- CPU_WriteMem(4 bytes @ 0xE0002008) -- CPU_WriteMem(4 bytes @ 0xE000200C) -- CPU_WriteMem(4 bytes @ 0xE0002010) -- CPU_WriteMem(4 bytes @ 0xE0002014) -- CPU_WriteMem(4 bytes @ 0xE0002018) -- CPU_WriteMem(4 bytes @ 0xE000201C) (0186ms, 10440ms total)
T2110 014:198 JLINK_IsHalted() -- CPU_ReadMem(2 bytes @ 0x20000000)  returns TRUE (0481ms, 10626ms total)
T2110 014:679 JLINK_ReadReg(R15)  returns 0x20000000 (0002ms, 10626ms total)
T2110 014:681 JLINK_ClrBPEx(BPHandle = 0x00000008)  returns 0x00 (0000ms, 10628ms total)
T2110 014:681 JLINK_ReadReg(R0)  returns 0x00000000 (0001ms, 10628ms total)
T2110 014:682 JLINK_WriteMem(0x20000254, 0x0400 Bytes, ...) -- Data:  01 2B 31 46 28 46 FF F7 5C FF 00 B9 01 E0 AD 1D ... -- CPU_WriteMem(1024 bytes @ 0x20000254)  returns 0x400 (0578ms, 10629ms total)
T2110 015:261 JLINK_WriteReg(R0, 0x00000C00)  returns 0x00 (0000ms, 11207ms total)
T2110 015:261 JLINK_WriteReg(R1, 0x00000400)  returns 0x00 (0000ms, 11207ms total)
T2110 015:261 JLINK_WriteReg(R2, 0x20000254)  returns 0x00 (0000ms, 11207ms total)
T2110 015:261 JLINK_WriteReg(R3, 0x00000000)  returns 0x00 (0000ms, 11207ms total)
T2110 015:261 JLINK_WriteReg(R4, 0x00000000)  returns 0x00 (0000ms, 11207ms total)
T2110 015:261 JLINK_WriteReg(R5, 0x00000000)  returns 0x00 (0000ms, 11207ms total)
T2110 015:261 JLINK_WriteReg(R6, 0x00000000)  returns 0x00 (0000ms, 11207ms total)
T2110 015:261 JLINK_WriteReg(R7, 0x00000000)  returns 0x00 (0000ms, 11207ms total)
T2110 015:261 JLINK_WriteReg(R8, 0x00000000)  returns 0x00 (0000ms, 11207ms total)
T2110 015:261 JLINK_WriteReg(R9, 0x20000248)  returns 0x00 (0000ms, 11207ms total)
T2110 015:261 JLINK_WriteReg(R10, 0x00000000)  returns 0x00 (0000ms, 11207ms total)
T2110 015:261 JLINK_WriteReg(R11, 0x00000000)  returns 0x00 (0000ms, 11207ms total)
T2110 015:261 JLINK_WriteReg(R12, 0x00000000)  returns 0x00 (0000ms, 11207ms total)
T2110 015:262 JLINK_WriteReg(R13, 0x20000800)  returns 0x00 (0000ms, 11208ms total)
T2110 015:262 JLINK_WriteReg(R14, 0x20000001)  returns 0x00 (0000ms, 11208ms total)
T2110 015:262 JLINK_WriteReg(R15, 0x200001C4)  returns 0x00 (0000ms, 11208ms total)
T2110 015:262 JLINK_WriteReg(XPSR, 0x01000000)  returns 0x00 (0000ms, 11208ms total)
T2110 015:262 JLINK_WriteReg(MSP, 0x20000800)  returns 0x00 (0000ms, 11208ms total)
T2110 015:262 JLINK_WriteReg(PSP, 0x20000800)  returns 0x00 (0000ms, 11208ms total)
T2110 015:262 JLINK_WriteReg(CFBP, 0x00000000)  returns 0x00 (0000ms, 11208ms total)
T2110 015:262 JLINK_SetBPEx(Addr = 0x20000000, Type = 0xFFFFFFF2)  returns 0x00000009 (0000ms, 11208ms total)
T2110 015:262 JLINK_Go() -- CPU_WriteMem(4 bytes @ 0xE0002008) -- CPU_WriteMem(4 bytes @ 0xE000200C) -- CPU_WriteMem(4 bytes @ 0xE0002010) -- CPU_WriteMem(4 bytes @ 0xE0002014) -- CPU_WriteMem(4 bytes @ 0xE0002018) -- CPU_WriteMem(4 bytes @ 0xE000201C) (0186ms, 11208ms total)
T2110 015:448 JLINK_IsHalted() -- CPU_ReadMem(2 bytes @ 0x20000000)  returns TRUE (0478ms, 11394ms total)
T2110 015:926 JLINK_ReadReg(R15)  returns 0x20000000 (0001ms, 11394ms total)
T2110 015:927 JLINK_ClrBPEx(BPHandle = 0x00000009)  returns 0x00 (0000ms, 11395ms total)
T2110 015:927 JLINK_ReadReg(R0)  returns 0x00000000 (0000ms, 11395ms total)
T2110 015:927 JLINK_WriteMem(0x20000254, 0x0400 Bytes, ...) -- Data:  FC 66 66 7C 60 60 F0 00 7C C6 C6 C6 C6 CE 7C 0E ... -- CPU_WriteMem(1024 bytes @ 0x20000254)  returns 0x400 (0578ms, 11395ms total)
T2110 016:507 JLINK_WriteReg(R0, 0x00001000)  returns 0x00 (0000ms, 11973ms total)
T2110 016:507 JLINK_WriteReg(R1, 0x000002F4)  returns 0x00 (0000ms, 11973ms total)
T2110 016:507 JLINK_WriteReg(R2, 0x20000254)  returns 0x00 (0000ms, 11973ms total)
T2110 016:507 JLINK_WriteReg(R3, 0x00000000)  returns 0x00 (0001ms, 11973ms total)
T2110 016:508 JLINK_WriteReg(R4, 0x00000000)  returns 0x00 (0000ms, 11974ms total)
T2110 016:508 JLINK_WriteReg(R5, 0x00000000)  returns 0x00 (0000ms, 11974ms total)
T2110 016:508 JLINK_WriteReg(R6, 0x00000000)  returns 0x00 (0001ms, 11974ms total)
T2110 016:509 JLINK_WriteReg(R7, 0x00000000)  returns 0x00 (0000ms, 11975ms total)
T2110 016:509 JLINK_WriteReg(R8, 0x00000000)  returns 0x00 (0000ms, 11975ms total)
T2110 016:509 JLINK_WriteReg(R9, 0x20000248)  returns 0x00 (0000ms, 11975ms total)
T2110 016:509 JLINK_WriteReg(R10, 0x00000000)  returns 0x00 (0000ms, 11975ms total)
T2110 016:509 JLINK_WriteReg(R11, 0x00000000)  returns 0x00 (0000ms, 11975ms total)
T2110 016:509 JLINK_WriteReg(R12, 0x00000000)  returns 0x00 (0000ms, 11975ms total)
T2110 016:509 JLINK_WriteReg(R13, 0x20000800)  returns 0x00 (0000ms, 11975ms total)
T2110 016:509 JLINK_WriteReg(R14, 0x20000001)  returns 0x00 (0000ms, 11975ms total)
T2110 016:509 JLINK_WriteReg(R15, 0x200001C4)  returns 0x00 (0000ms, 11975ms total)
T2110 016:509 JLINK_WriteReg(XPSR, 0x01000000)  returns 0x00 (0000ms, 11975ms total)
T2110 016:509 JLINK_WriteReg(MSP, 0x20000800)  returns 0x00 (0000ms, 11975ms total)
T2110 016:509 JLINK_WriteReg(PSP, 0x20000800)  returns 0x00 (0000ms, 11975ms total)
T2110 016:509 JLINK_WriteReg(CFBP, 0x00000000)  returns 0x00 (0000ms, 11975ms total)
T2110 016:509 JLINK_SetBPEx(Addr = 0x20000000, Type = 0xFFFFFFF2)  returns 0x0000000A (0000ms, 11975ms total)
T2110 016:509 JLINK_Go() -- CPU_WriteMem(4 bytes @ 0xE0002008) -- CPU_WriteMem(4 bytes @ 0xE000200C) -- CPU_WriteMem(4 bytes @ 0xE0002010) -- CPU_WriteMem(4 bytes @ 0xE0002014) -- CPU_WriteMem(4 bytes @ 0xE0002018) -- CPU_WriteMem(4 bytes @ 0xE000201C) (0188ms, 11975ms total)
T2110 016:697 JLINK_IsHalted() -- CPU_ReadMem(2 bytes @ 0x20000000)  returns TRUE (0480ms, 12163ms total)
T2110 017:178 JLINK_ReadReg(R15)  returns 0x20000000 (0001ms, 12163ms total)
T2110 017:179 JLINK_ClrBPEx(BPHandle = 0x0000000A)  returns 0x00 (0000ms, 12164ms total)
T2110 017:179 JLINK_ReadReg(R0)  returns 0x00000000 (0000ms, 12164ms total)
T2110 017:179 JLINK_WriteReg(R0, 0x00000002)  returns 0x00 (0000ms, 12164ms total)
T2110 017:179 JLINK_WriteReg(R1, 0x000002F4)  returns 0x00 (0001ms, 12164ms total)
T2110 017:180 JLINK_WriteReg(R2, 0x20000254)  returns 0x00 (0000ms, 12165ms total)
T2110 017:180 JLINK_WriteReg(R3, 0x00000000)  returns 0x00 (0000ms, 12165ms total)
T2110 017:180 JLINK_WriteReg(R4, 0x00000000)  returns 0x00 (0000ms, 12165ms total)
T2110 017:180 JLINK_WriteReg(R5, 0x00000000)  returns 0x00 (0000ms, 12165ms total)
T2110 017:180 JLINK_WriteReg(R6, 0x00000000)  returns 0x00 (0000ms, 12165ms total)
T2110 017:180 JLINK_WriteReg(R7, 0x00000000)  returns 0x00 (0000ms, 12165ms total)
T2110 017:180 JLINK_WriteReg(R8, 0x00000000)  returns 0x00 (0000ms, 12165ms total)
T2110 017:180 JLINK_WriteReg(R9, 0x20000248)  returns 0x00 (0000ms, 12165ms total)
T2110 017:180 JLINK_WriteReg(R10, 0x00000000)  returns 0x00 (0000ms, 12165ms total)
T2110 017:180 JLINK_WriteReg(R11, 0x00000000)  returns 0x00 (0000ms, 12165ms total)
T2110 017:180 JLINK_WriteReg(R12, 0x00000000)  returns 0x00 (0000ms, 12165ms total)
T2110 017:180 JLINK_WriteReg(R13, 0x20000800)  returns 0x00 (0000ms, 12165ms total)
T2110 017:180 JLINK_WriteReg(R14, 0x20000001)  returns 0x00 (0000ms, 12165ms total)
T2110 017:180 JLINK_WriteReg(R15, 0x200000CE)  returns 0x00 (0000ms, 12165ms total)
T2110 017:180 JLINK_WriteReg(XPSR, 0x01000000)  returns 0x00 (0000ms, 12165ms total)
T2110 017:180 JLINK_WriteReg(MSP, 0x20000800)  returns 0x00 (0000ms, 12165ms total)
T2110 017:180 JLINK_WriteReg(PSP, 0x20000800)  returns 0x00 (0000ms, 12165ms total)
T2110 017:181 JLINK_WriteReg(CFBP, 0x00000000)  returns 0x00 (0000ms, 12166ms total)
T2110 017:181 JLINK_SetBPEx(Addr = 0x20000000, Type = 0xFFFFFFF2)  returns 0x0000000B (0000ms, 12166ms total)
T2110 017:181 JLINK_Go() -- CPU_WriteMem(4 bytes @ 0xE0002008) -- CPU_WriteMem(4 bytes @ 0xE000200C) -- CPU_WriteMem(4 bytes @ 0xE0002010) -- CPU_WriteMem(4 bytes @ 0xE0002014) -- CPU_WriteMem(4 bytes @ 0xE0002018) -- CPU_WriteMem(4 bytes @ 0xE000201C) (0180ms, 12166ms total)
T2110 017:361 JLINK_IsHalted() -- CPU_ReadMem(2 bytes @ 0x20000000)  returns TRUE (0521ms, 12346ms total)
T2110 017:882 JLINK_ReadReg(R15)  returns 0x20000000 (0000ms, 12346ms total)
T2110 017:882 JLINK_ClrBPEx(BPHandle = 0x0000000B)  returns 0x00 (0000ms, 12346ms total)
T2110 017:882 JLINK_ReadReg(R0)  returns 0x00000000 (0000ms, 12346ms total)
T2110 017:945 JLINK_WriteMem(0x20000000, 0x0254 Bytes, ...) -- Data:  00 BE 0A E0 0D 78 2D 06 68 40 08 24 40 00 00 D3 ... -- CPU_WriteMem(596 bytes @ 0x20000000)  returns 0x254 (0362ms, 12346ms total)
T2110 018:309 JLINK_WriteReg(R0, 0x00000000)  returns 0x00 (0001ms, 12708ms total)
T2110 018:310 JLINK_WriteReg(R1, 0x003D0900)  returns 0x00 (0000ms, 12709ms total)
T2110 018:310 JLINK_WriteReg(R2, 0x00000003)  returns 0x00 (0000ms, 12709ms total)
T2110 018:310 JLINK_WriteReg(R3, 0x00000000)  returns 0x00 (0000ms, 12709ms total)
T2110 018:310 JLINK_WriteReg(R4, 0x00000000)  returns 0x00 (0000ms, 12709ms total)
T2110 018:310 JLINK_WriteReg(R5, 0x00000000)  returns 0x00 (0000ms, 12709ms total)
T2110 018:310 JLINK_WriteReg(R6, 0x00000000)  returns 0x00 (0000ms, 12709ms total)
T2110 018:310 JLINK_WriteReg(R7, 0x00000000)  returns 0x00 (0000ms, 12709ms total)
T2110 018:310 JLINK_WriteReg(R8, 0x00000000)  returns 0x00 (0000ms, 12709ms total)
T2110 018:310 JLINK_WriteReg(R9, 0x20000248)  returns 0x00 (0000ms, 12709ms total)
T2110 018:310 JLINK_WriteReg(R10, 0x00000000)  returns 0x00 (0000ms, 12709ms total)
T2110 018:310 JLINK_WriteReg(R11, 0x00000000)  returns 0x00 (0000ms, 12709ms total)
T2110 018:310 JLINK_WriteReg(R12, 0x00000000)  returns 0x00 (0000ms, 12709ms total)
T2110 018:310 JLINK_WriteReg(R13, 0x20000800)  returns 0x00 (0000ms, 12709ms total)
T2110 018:310 JLINK_WriteReg(R14, 0x20000001)  returns 0x00 (0000ms, 12709ms total)
T2110 018:310 JLINK_WriteReg(R15, 0x200000A8)  returns 0x00 (0000ms, 12709ms total)
T2110 018:310 JLINK_WriteReg(XPSR, 0x01000000)  returns 0x00 (0000ms, 12709ms total)
T2110 018:310 JLINK_WriteReg(MSP, 0x20000800)  returns 0x00 (0000ms, 12709ms total)
T2110 018:310 JLINK_WriteReg(PSP, 0x20000800)  returns 0x00 (0000ms, 12709ms total)
T2110 018:310 JLINK_WriteReg(CFBP, 0x00000000)  returns 0x00 (0000ms, 12709ms total)
T2110 018:310 JLINK_SetBPEx(Addr = 0x20000000, Type = 0xFFFFFFF2) -- CPU_ReadMem(4 bytes @ 0x20000000) -- CPU_WriteMem(4 bytes @ 0x20000000) -- CPU_ReadMem(4 bytes @ 0x20000000) -- CPU_WriteMem(4 bytes @ 0x20000000) -- CPU_ReadMem(2 bytes @ 0x20000000)  returns 0x0000000C (0106ms, 12709ms total)
T2110 018:416 JLINK_Go() -- CPU_WriteMem(2 bytes @ 0x20000000) -- CPU_WriteMem(4 bytes @ 0xE0002008) -- CPU_WriteMem(4 bytes @ 0xE000200C) -- CPU_WriteMem(4 bytes @ 0xE0002010) -- CPU_WriteMem(4 bytes @ 0xE0002014) -- CPU_WriteMem(4 bytes @ 0xE0002018) -- CPU_WriteMem(4 bytes @ 0xE000201C) (0194ms, 12815ms total)
T2110 018:610 JLINK_IsHalted() -- CPU_ReadMem(2 bytes @ 0x20000000)  returns TRUE (0480ms, 13009ms total)
T2110 019:092 JLINK_ReadReg(R15)  returns 0x20000000 (0000ms, 13009ms total)
T2110 019:092 JLINK_ClrBPEx(BPHandle = 0x0000000C)  returns 0x00 (0000ms, 13009ms total)
T2110 019:092 JLINK_ReadReg(R0)  returns 0x00000000 (0000ms, 13009ms total)
T2110 019:092 JLINK_WriteReg(R0, 0xFFFFFFFF)  returns 0x00 (0000ms, 13009ms total)
T2110 019:092 JLINK_WriteReg(R1, 0x00000000)  returns 0x00 (0000ms, 13009ms total)
T2110 019:092 JLINK_WriteReg(R2, 0x000012F4)  returns 0x00 (0000ms, 13009ms total)
T2110 019:092 JLINK_WriteReg(R3, 0x04C11DB7)  returns 0x00 (0000ms, 13009ms total)
T2110 019:092 JLINK_WriteReg(R4, 0x00000000)  returns 0x00 (0000ms, 13009ms total)
T2110 019:092 JLINK_WriteReg(R5, 0x00000000)  returns 0x00 (0000ms, 13009ms total)
T2110 019:092 JLINK_WriteReg(R6, 0x00000000)  returns 0x00 (0000ms, 13009ms total)
T2110 019:092 JLINK_WriteReg(R7, 0x00000000)  returns 0x00 (0000ms, 13009ms total)
T2110 019:092 JLINK_WriteReg(R8, 0x00000000)  returns 0x00 (0000ms, 13009ms total)
T2110 019:092 JLINK_WriteReg(R9, 0x20000248)  returns 0x00 (0001ms, 13009ms total)
T2110 019:093 JLINK_WriteReg(R10, 0x00000000)  returns 0x00 (0000ms, 13010ms total)
T2110 019:093 JLINK_WriteReg(R11, 0x00000000)  returns 0x00 (0000ms, 13010ms total)
T2110 019:093 JLINK_WriteReg(R12, 0x00000000)  returns 0x00 (0000ms, 13010ms total)
T2110 019:093 JLINK_WriteReg(R13, 0x20000800)  returns 0x00 (0000ms, 13010ms total)
T2110 019:093 JLINK_WriteReg(R14, 0x20000001)  returns 0x00 (0000ms, 13010ms total)
T2110 019:093 JLINK_WriteReg(R15, 0x20000002)  returns 0x00 (0000ms, 13010ms total)
T2110 019:093 JLINK_WriteReg(XPSR, 0x01000000)  returns 0x00 (0000ms, 13010ms total)
T2110 019:093 JLINK_WriteReg(MSP, 0x20000800)  returns 0x00 (0000ms, 13010ms total)
T2110 019:093 JLINK_WriteReg(PSP, 0x20000800)  returns 0x00 (0000ms, 13010ms total)
T2110 019:093 JLINK_WriteReg(CFBP, 0x00000000)  returns 0x00 (0000ms, 13010ms total)
T2110 019:093 JLINK_SetBPEx(Addr = 0x20000000, Type = 0xFFFFFFF2)  returns 0x0000000D (0000ms, 13010ms total)
T2110 019:093 JLINK_Go() -- CPU_WriteMem(4 bytes @ 0xE0002008) -- CPU_WriteMem(4 bytes @ 0xE000200C) -- CPU_WriteMem(4 bytes @ 0xE0002010) -- CPU_WriteMem(4 bytes @ 0xE0002014) -- CPU_WriteMem(4 bytes @ 0xE0002018) -- CPU_WriteMem(4 bytes @ 0xE000201C) (0160ms, 13010ms total)
T2110 019:253 JLINK_IsHalted() -- CPU_ReadMem(2 bytes @ 0x20000000)  returns TRUE (0480ms, 13170ms total)
T2110 019:733 JLINK_ReadReg(R15)  returns 0x20000000 (0001ms, 13170ms total)
T2110 019:734 JLINK_ClrBPEx(BPHandle = 0x0000000D)  returns 0x00 (0000ms, 13171ms total)
T2110 019:734 JLINK_ReadReg(R0)  returns 0x09BCD637 (0000ms, 13171ms total)
T2110 019:734 JLINK_ReadMem (0x00000000, 0x0FF0 Bytes, ...) -- CPU_ReadMem(4080 bytes @ 0x00000000) -- Data:  68 98 FF 1F 01 75 00 00 81 75 00 00 01 73 00 00 ...  returns 0x00 (2339ms, 13171ms total)
T2110 022:075 JLINK_ReadMem (0x00000FF0, 0x0304 Bytes, ...) -- CPU_ReadMem(772 bytes @ 0x00000FF0) -- Data:  B0 FB F1 F0 02 90 02 98 00 28 01 D1 0D 20 E6 E0 ...  returns 0x00 (0493ms, 15510ms total)
T2110 025:441 JLINK_Close() -- CPU_ReadMem(2 bytes @ 0x20000000) -- CPU_WriteMem(2 bytes @ 0x20000000) -- CPU_WriteMem(4 bytes @ 0xE0002008) -- CPU_WriteMem(4 bytes @ 0xE000200C) -- CPU_WriteMem(4 bytes @ 0xE0002010) -- CPU_WriteMem(4 bytes @ 0xE0002014) -- CPU_WriteMem(4 bytes @ 0xE0002018) -- CPU_WriteMem(4 bytes @ 0xE000201C) >0x08 JTAG> (0202ms, 16003ms total)
